 ****** PrimeSim HSPICE -- R-2020.12-SP2 linux64 (May 24 2021 7074677) ******
  Copyright (c) 1986 - 2024 by Synopsys, Inc. All Rights Reserved.
  This software and the associated documentation are proprietary
  to Synopsys, Inc. This software may only be used in accordance
  with the terms and conditions of a written license agreement with
  Synopsys, Inc. All other use, reproduction, or distribution of
  this software is strictly prohibited.
  Input File: 07_swing.sp                                                       
  Command line options: /usr/cadtool/cad/synopsys/hspice/2020.12-sp2/hspice/linux64/hspice -i 07_swing.sp -o 07_swing.lis
  Start time: Wed Jun 26 13:35:26 2024
 lic:  
 lic: FLEXlm: SDK_12.9.5 
 lic: USER:   ee323524             HOSTNAME: ws42 
 lic: HOSTID: "5cf3fcb5e35c"       PID:      23776 
 lic: Using FLEXlm license file: 
 lic: 26585@lshc 
 lic: Checkout 1 hspice 
 lic: License/Maintenance for hspice will expire on 14-may-2025/2023.12 
 lic: 499(in_use)/1100(total) FLOATING license(s) on SERVER 26585@lshc 
 lic:   
  **info**  the obsolete option acout is ignored
  **info**  the obsolete option acout is ignored
  **warning** (07_swing.sp:6) runlvl smaller than 5, reset to 5 when accurate turned on

 **warning**  runlvl smaller than 5, reset to 5 when accurate turned on
1****** PrimeSim HSPICE -- R-2020.12-SP2 linux64 (May 24 2021 7074677) ******
 ******  
 analog ic term project: closed-loop dc sweep

 ****** circuit name directory
 circuit number to circuit name directory
   number circuitname                     definition         multiplier
        0 main circuit
        1 xop.                            op                 1.00 
 

  
      
 **info** set option symb=1 internally to help for convergence.
 *****************************************************************
 ******  option summary
 ******
 runlvl  = 5         bypass  = 2.0000    
  Opening plot unit= 15
 file=07_swing.pa0

 **info** dc convergence successful at GMINDC ramping method 
 ******  
 analog ic term project: closed-loop dc sweep

 ****** operating point information tnom=  25.000 temp=  25.000 ******
 ****** operating point status is all       simulation time is     0.     
    node    =voltage      node    =voltage      node    =voltage

 +0:test1   =   0.      0:test2   =   1.5000  0:vdd     =   1.5000 
 +0:vinn    = 920.3134m 0:vinp    = 518.1503m 0:vocm    = 750.0000m
 +0:von     =   1.0363  0:vop     = 340.6268m 0:vss     =   0.     
 +1:d4      =   3.0458u 1:d6      =   1.5000  1:net26   = 413.9859m
 +1:net31   = 720.6631m 1:net42   = 732.8433m 1:net44   = 493.7921m
 +1:net47   =   1.0179  1:net51   = 327.6918m 1:net52   = 509.2514m
 +1:net55   = 894.8750m 1:net60   = 688.4637m 1:net67   =  25.4611m
 +1:net68   = 956.5919m 1:net73   = 777.4188m 1:net78   =   1.5000 
 +1:net79   = 732.8433m


 **** voltage sources

 subckt                                                         
 element  0:vdd      0:vgnd     0:vinn     0:vinp     0:vocm    
  volts      1.5000     0.         1.5000     0.       750.0000m
  current -311.8988u  300.5910u  -23.1875u   20.7260u    0.     
  power    467.8483u    0.        34.7812u    0.         0.     

     total voltage source power dissipation=  502.6295u       watts



 **** resistors

 subckt                                                                    
 element  0:rload1   0:rload2   0:rtest1   0:rtest2   0:rtest3   0:rtest4  
  r value  100.0000k  100.0000k   25.0000k   25.0000k   25.0000k   25.0000k
  v drop     1.0363   340.6268m -579.6866m  518.1503m  579.6866m -518.1503m
  current   10.3630u    3.4063u  -23.1875u   20.7260u   23.1875u  -20.7260u
  power     10.7392u    1.1603u   13.4415u   10.7392u   13.4415u   10.7392u

 subckt   xop        xop        xop        xop        xop       
 element  1:rrcm2    1:rrcm1    1:rrz2     1:rrz1     1:rrb     
  r value   70.0000k   70.0000k    4.8000k    4.8000k    7.3000k
  v drop  -347.8369m -347.8369m    0.         0.        95.2655m
  current   -4.9691u   -4.9691u    0.         0.        13.0501u
  power      1.7284u    1.7284u    0.         0.         1.2432u



 **** mosfets


 subckt   xop        xop        xop        xop        xop        xop       
 element  1:mcm1     1:mcm2     1:mcm3     1:mcm4     1:mcm5     1:m1      
 model    0:n_18.1   0:n_18.1   0:p_18.1   0:p_18.1   0:n_18.1   0:p_18.1  
 region   Saturation Saturation Saturation Saturation Saturation Saturation
  id         9.1738u   28.1909u   -9.1738u  -28.1909u   37.3646u  -16.1850u
  ibs     -1.376e-21 -4.230e-21  8.901e-22  2.735e-21 -5.885e-21  1.547e-21
  ibd       -1.8412f   -1.4599f  858.1147a    1.0247f -347.3736a    2.8889f
  vgs      360.7719m  422.3082m -605.1250m -722.5812m  509.2514m -499.7702m
  vds      567.1832m  449.7270m -605.1250m -722.5812m  327.6918m -524.1285m
  vbs        0.         0.         0.         0.         0.         0.     
  vth      347.9175m  348.4952m -483.0324m -483.0328m  386.8610m -498.6919m
  vdsat     65.6373m   97.1664m -132.9146m -220.5656m  132.9820m  -69.3723m
  vod       12.8544m   73.8131m -122.0926m -239.5484m  122.3904m   -1.0784m
  beta       6.8198m    6.8386m    1.0887m    1.0549m    4.3618m   12.7416m
  gam eff  507.4459m  507.4460m  557.0847m  557.0846m  507.4461m  557.0847m
  gm       192.0569u  453.8734u  112.6906u  207.8807u  465.2932u  323.5912u
  gds        1.5329u    3.8896u  265.6499n  724.8001n    7.3948u    1.4495u
  gmb       39.9302u   92.9773u   34.5385u   64.8927u   94.2520u   96.6424u
  cdtot     60.9816f   62.8699f   35.5986f   34.9903f   20.4413f  141.4629f
  cgtot    441.2720f  577.7969f  385.7954f  392.1435f   96.0186f  394.9048f
  cstot    426.5075f  611.3492f  437.1561f  447.3983f  107.4098f  422.3814f
  cbtot    246.8786f  249.4123f  178.3292f  176.0015f   53.6250f  366.5490f
  cgs      338.0781f  506.3482f  344.0411f  354.1143f   83.4999f  264.6025f
  cgd       16.2180f   15.7241f   11.0162f   11.0761f    5.1262f   43.0633f



 subckt   xop        xop        xop        xop        xop        xop       
 element  1:m2       1:m3       1:m4       1:m5       1:m6       1:m7      
 model    0:p_18.1   0:n_18.1   0:n_18.1   0:p_18.1   0:n_18.1   0:p_18.1  
 region   Subth      Saturation Linear     Saturation Subth      Linear    
  id      -518.0073p   16.1850u  530.2279p  -16.1856u   37.0775p  -40.0318p
  ibs      5.010e-26 -2.426e-21 -7.948e-26  1.515e-21 -5.902e-27  3.750e-27
  ibd        5.6107f   -1.6768f -1.034e-20  759.5089a   -2.6479f  5.002e-22
  vgs      -97.6072m  509.2514m  509.2514m -605.1250m    3.0458u -543.4081m
  vds       -1.0179   493.7921m    3.0458u -482.0795m    1.5000   -35.2769n
  vbs        0.         0.         0.         0.         0.         0.     
  vth     -498.6918m  313.1501m  313.9433m -491.9489m  402.1219m -491.9486m
  vdsat    -41.4053m  174.6330m  174.0624m -129.3587m   40.7393m  -90.2045m
  vod      401.0846m  196.1013m  195.3081m -113.1761m -402.1189m  -51.4595m
  beta      12.8646m  939.8101u  939.8448u    2.1035m   10.8243m   19.1985m
  gam eff  557.0847m  507.4459m  507.4459m  557.0846m  507.4459m  557.0847m
  gm        14.7364n  148.3620u    2.8104n  206.7733u    1.3632n  454.8659p
  gds       37.3960p  503.9147n  174.0855u  897.2747n   14.8970p    1.1348m
  gmb        5.1799n   29.1025u  589.1751p   62.6784u  318.3983p  142.7814p
  cdtot    130.0378f   78.3494f    5.8155p   41.8313f   28.4944f    2.6026p
  cgtot    248.7161f    4.6047p    5.8482p  267.3994f   49.3658f    2.6477p
  cstot    163.1903f    4.7538p    5.5057p  307.4451f   37.5290f    2.6449p
  cbtot    369.8415f    1.3246p    1.5179p  145.2928f   78.1114f    1.4481p
  cgs       43.0312f    4.1966p    3.1859p  233.8450f    9.3201f    1.5119p
  cgd       43.0225f   18.7712f    2.5067p   12.6883f    9.3192f    1.0138p



 subckt   xop        xop        xop        xop        xop        xop       
 element  1:m8       1:m9       1:m10      1:m11      1:m12      1:m13     
 model    0:n_18.1   0:p_18.1   0:n_18.1   0:n_18.1   0:n_18.1   0:n_18.1  
 region   Saturation Saturation Saturation Saturation Subth      Subth     
  id        59.2788u  -59.2788u  133.5469u   97.4888u   35.6252u   60.3755u
  ibs     -9.069e-21  5.550e-21 -1.999e-20 -1.522e-20 -5.333e-21 -9.427e-21
  ibd       -1.2937f   10.8778f   -3.3375f   -1.2447f   -8.3447f -409.1242a
  vgs      493.7921m -543.4081m  463.6993m  509.2514m  392.2165m  509.2514m
  vds      732.8433m -767.1567m  463.6993m    1.0363     1.1594   340.6268m
  vbs        0.         0.         0.         0.         0.         0.     
  vth      409.6633m -491.9487m  433.0631m  486.7084m  424.7620m  510.5346m
  vdsat    111.6720m  -90.2080m   83.5579m   96.4726m   58.0817m   86.0560m
  vod       84.1287m  -51.4594m   30.6362m   22.5430m  -32.5455m   -1.2832m
  beta      10.8683m   19.1984m   58.5040m   31.9282m   58.4210m   31.9184m
  gam eff  507.4461m  557.0847m  507.4460m  507.4463m  507.4459m  507.4461m
  gm       884.7350u    1.0013m    2.5252m    1.6355m  826.0619u    1.0900m
  gds       11.0053u    2.5271u   37.6459u   58.5909u   10.1374u   53.1955u
  gmb      177.1348u  302.5212u  502.5206u  240.7239u  163.8758u  162.9794u
  cdtot     31.6091f  354.3094f  138.2575f   20.1400f  123.3693f   22.8014f
  cgtot    115.3866f    2.1749p  339.3858f   25.6614f  215.4906f   23.2848f
  cstot    133.9699f    2.4169p  399.5277f   36.7906f  231.3692f   33.5776f
  cbtot     76.8906f    1.2824p  301.0551f   37.4931f  285.3133f   40.0780f
  cgs       96.9253f    1.8000p  259.4620f   16.4989f  106.5890f   13.7145f
  cgd        8.6249f  113.1247f   36.7286f    5.9241f   38.1776f    6.0091f



 subckt   xop        xop        xop        xop        xop        xop       
 element  1:mb1      1:mb2      1:mb3      1:mb4      1:mb5      1:mb6     
 model    0:n_18.1   0:n_18.1   0:p_18.1   0:n_18.1   0:n_18.1   0:p_18.1  
 region   Subth      Linear     Saturation Saturation Saturation Saturation
  id       272.1984f    1.5193u   -1.5193u   13.0501u   12.9379u  -13.0501u
  ibs     -6.468e-28 -3.379e-22  2.076e-22 -2.309e-21 -1.996e-21  1.426e-21
  ibd      -67.7106a   -5.4443a  193.7660a -176.1073a   -1.0689f  260.2563a
  vgs       25.4611m  509.2514m -990.7486m  509.2514m  413.9859m -779.3369m
  vds      720.6631m   25.4611m   -1.4745   413.9859m  720.6631m -990.7486m
  vbs        0.         0.         0.         0.         0.         0.     
  vth      311.8930m  396.9924m -462.9999m  388.6948m  383.4642m -495.6982m
  vdsat     35.1589m  125.2233m -453.8160m  130.9688m   77.2369m -264.0471m
  vod     -286.4319m  112.2589m -527.7487m  120.5566m   30.5216m -283.6387m
  beta       1.8305u  620.5832u   12.6417u    1.5559m    6.2131m  337.3257u
  gam eff  507.4459m  507.4460m  557.0846m  507.4461m  507.4460m  557.0846m
  gm         9.8962p   13.4978u    5.2814u  164.1586u  249.3230u   81.2287u
  gds        5.2555f   52.5328u    4.5148n    2.2038u    2.6768u  478.1867n
  gmb        2.2619p    2.8398u    1.7602u   33.1590u   51.3886u   25.2500u
  cdtot    508.6133a   14.0381f    2.2065f    7.1589f   26.4070f    5.5564f
  cgtot     25.9000f   16.1915f  126.4211f   34.2728f  115.4845f   32.5806f
  cstot    609.0552a   16.4802f  143.7326f   38.4362f  124.7089f   38.3603f
  cbtot     26.5471f    8.5253f   45.1037f   19.1668f   74.4593f   18.2441f
  cgs      119.3011a   10.5980f  116.9829f   29.8184f   92.3950f   28.6458f
  cgd      116.4894a    5.0349f  738.7069a    1.7971f    7.2488f    1.7991f



 subckt   xop        xop        xop       
 element  1:mb7      1:mb8      1:mb9     
 model    0:p_18.1   0:n_18.1   0:p_18.1  
 region   Saturation Saturation Saturation
  id       -12.9379u    2.3904u   -2.3904u
  ibs      1.414e-21 -7.126e-22  2.374e-22
  ibd      204.7210a -137.0980a  285.4238a
  vgs     -779.3369m  509.2514m -543.4081m
  vds     -779.3369m  956.5919m -543.4081m
  vbs        0.         0.         0.     
  vth     -495.6982m  397.2984m -494.6265m
  vdsat   -264.0461m  125.5823m  -90.2889m
  vod     -283.6387m  111.9530m  -48.7816m
  beta     337.3258u  308.4958u  799.0479u
  gam eff  557.0846m  507.4461m  557.0847m
  gm        80.5004u   31.2551u   40.6497u
  gds      592.9742n  336.8836n  144.1214n
  gmb       25.0209u    6.2383u   12.2303u
  cdtot      5.7599f    1.3764f   13.0063f
  cgtot     32.5915f    6.8219f   63.1253f
  cstot     38.3551f    7.7634f   70.9216f
  cbtot     18.4318f    3.9046f   40.8764f
  cgs       28.6521f    5.9104f   51.4617f
  cgd        1.8065f  354.4127a    3.9556f




          ***** job concluded
 ******  
 analog ic term project: closed-loop dc sweep

 ****** job statistics summary tnom=  25.000 temp=  25.000 ******
  
 ******  Machine Information  ******
 CPU:
 model name	: Intel(R) Xeon(R) CPU           E5620  @ 2.40GHz
 cpu MHz	: 1596.000
 CPU(s)		: 8
  
 OS:
 Linux version 3.10.0-1160.95.1.el7.x86_64 (mockbuild@kbuilder.bsys.centos.org) (gcc version 4.8.5 20150623 (Red Hat 4.8.5-44) (GCC) ) #1 SMP Mon Jul 24 13:59:37 UTC 2023

 System loadavg : 0.15 0.10 0.07 2/575 23782


  ******  PrimeSim HSPICE Threads Information  ******

  Command Line Threads Count :     1
  Available CPU Count        :     8
  Actual Threads Count       :     1


  ******  Circuit Statistics  ******
  # nodes       =      80 # elements   =      47
  # resistors   =      11 # capacitors =       4 # inductors   =       0
  # mutual_inds =       0 # vccs       =       0 # vcvs        =       0
  # cccs        =       0 # ccvs       =       0 # volt_srcs   =       5
  # curr_srcs   =       0 # diodes     =       0 # bjts        =       0
  # jfets       =       0 # mosfets    =      27 # U elements  =       0
  # T elements  =       0 # W elements =       0 # B elements  =       0
  # S elements  =       0 # P elements =       0 # va device   =       0
  # vector_srcs =       0 # N elements =       0


  ******  Runtime Statistics (seconds)  ******

  analysis           time    # points   tot. iter  conv.iter
  op point           0.03           1         239
  dc sweep           0.15         151         613
  readin             0.02
  errchk             0.01
  setup              0.01
  output             0.00


           peak memory used        470.89 megabytes
           total cpu time            0.21 seconds
           total elapsed time        2.28 seconds
           job started at     13:35:26 06/26/2024
           job ended   at     13:35:28 06/26/2024
           job total runtime         2.28 seconds


 lic: Release hspice token(s) 
 lic: total license checkout elapse time:        2.06(s)
